Questionable use of curly braces in "v§signal in 0 sine(0 {vsig} 261.626) rser=50"
    Error: undefined symbol in: "[vsig]"
Circuit: * F:\Users\Aaron\Documents\UAkron\2019-20\Phys Elec\Project 3\AudioAmplifier.asc

Error on line 8 : v§signal in 0 sine(0 (vsig) 261.626) rser=50
	 Unknown parameter "vsig"
Direct Newton iteration for .op point succeeded.
Semiconductor Device Operating Points:
                        --- Bipolar Transistors ---
Name:       q2          q3          q1
Model:    2n3906      2n3904      2n3904
Ib:      -1.88e-04    2.28e-04    2.81e-05
Ic:      -3.66e-02    6.28e-02    8.60e-03
Vbe:     -7.56e-01    7.75e-01    7.12e-01
Vbc:      5.69e+00   -5.55e+00   -4.12e+00
Vce:     -6.45e+00    6.33e+00    4.83e+00
BetaDC:   1.95e+02    2.76e+02    3.06e+02
Gm:       1.31e+00    2.15e+00    3.26e-01
Rpi:      1.37e+02    1.14e+02    9.20e+02
Rx:       2.00e+01    2.00e+01    2.00e+01
Ro:       2.89e+03    1.68e+03    1.21e+04
Cbe:      4.76e-10    7.70e-10    1.27e-10
Cbc:      2.21e-12    1.98e-12    2.16e-12
Cjs:      0.00e+00    0.00e+00    0.00e+00
BetaAC:   1.80e+02    2.44e+02    3.00e+02
Cbx:      0.00e+00    0.00e+00    0.00e+00
Ft:       4.36e+08    4.43e+08    4.01e+08



Date: Thu Dec 05 23:47:58 2019
Total elapsed time: 0.031 seconds.

tnom = 27
temp = 27
method = trap
totiter = 6
traniter = 0
tranpoints = 0
accept = 0
rejected = 0
matrix size = 23
fillins = 0
solver = Normal
Matrix Compiler1: 1.53 KB object code size
Matrix Compiler2: 2.00 KB object code size
