Questionable use of curly braces in "v§signal in 0 sine(0 {vsig} 261.626) rser=50"
    Error: undefined symbol in: "[vsig]"
Circuit: * F:\Users\Aaron\Documents\UAkron\2019-20\Phys Elec\Project 3\VoltageGainStageTest.asc

Error on line 6 : v§signal in 0 sine(0 (vsig) 261.626) rser=50
	 Unknown parameter "vsig"
Direct Newton iteration for .op point succeeded.
Semiconductor Device Operating Points:
                        --- Bipolar Transistors ---
Name:       q1
Model:    2n3904
Ib:       6.89e-05
Ic:       2.05e-02
Vbe:      7.37e-01
Vbc:     -4.09e+00
Vce:      4.83e+00
BetaDC:   2.98e+02
Gm:       7.57e-01
Rpi:      3.76e+02
Rx:       2.00e+01
Ro:       5.08e+03
Cbe:      2.78e-10
Cbc:      2.16e-12
Cjs:      0.00e+00
BetaAC:   2.84e+02
Cbx:      0.00e+00
Ft:       4.29e+08



Date: Wed Dec 04 20:11:23 2019
Total elapsed time: 0.390 seconds.

tnom = 27
temp = 27
method = trap
totiter = 4
traniter = 0
tranpoints = 0
accept = 0
rejected = 0
matrix size = 14
fillins = 0
solver = Normal
Matrix Compiler1: 706 bytes object code size
Matrix Compiler2: 1.09 KB object code size
