Questionable use of curly braces in "v§signal in 0 sine(0 {vsig} 261.626) rser=50"
    Error: undefined symbol in: "[vsig]"
Circuit: * C:\Users\Jaret\Documents\MEGAsync\School\Physical Electronics - 19\Project 3\AudioAmplifier\VoltageGainStage (1).asc

Error on line 6 : v§signal in 0 sine(0 (vsig) 261.626) rser=50
	 Unknown parameter "vsig"
Direct Newton iteration for .op point succeeded.
Semiconductor Device Operating Points:
                        --- Bipolar Transistors ---
Name:       q1
Model:    2n3904
Ib:       2.81e-05
Ic:       8.60e-03
Vbe:      7.12e-01
Vbc:     -4.06e+00
Vce:      4.77e+00
BetaDC:   3.06e+02
Gm:       3.26e-01
Rpi:      9.20e+02
Rx:       2.00e+01
Ro:       1.21e+04
Cbe:      1.27e-10
Cbc:      2.17e-12
Cjs:      0.00e+00
BetaAC:   3.00e+02
Cbx:      0.00e+00
Ft:       4.01e+08



Date: Thu Dec 05 16:56:46 2019
Total elapsed time: 0.056 seconds.

tnom = 27
temp = 27
method = trap
totiter = 5
traniter = 0
tranpoints = 0
accept = 0
rejected = 0
matrix size = 14
fillins = 0
solver = Normal
Matrix Compiler1: 706 bytes object code size
Matrix Compiler2: 1.09 KB object code size
